time	V(n001)	V(n003)	I(R1)
0.000000000000000e+00	2.400000e+01	1.439992e-04	2.399987e-05
3.906249976259879e-11	2.400000e+01	1.439992e-04	2.399987e-05
7.812499952519758e-11	2.400000e+01	1.439992e-04	2.399987e-05
1.222525169835972e-10	2.400000e+01	1.439992e-04	2.399987e-05
1.695747100330803e-10	2.400000e+01	1.439992e-04	2.399987e-05
2.220963496184493e-10	2.400000e+01	1.439993e-04	2.399989e-05
2.806263930693114e-10	2.400000e+01	1.439995e-04	2.399992e-05
3.542939122840143e-10	2.400000e+01	1.440000e-04	2.399999e-05
4.381429165378080e-10	2.400000e+01	1.440008e-04	2.400013e-05
1.000000000000000e-08	2.400000e+01	1.458526e-04	2.430876e-05
4.221811791594736e-08	2.400000e+01	1.831666e-04	3.052777e-05
7.443623583189472e-08	2.400000e+01	2.699154e-04	4.498590e-05
1.066543537478421e-07	2.400000e+01	4.060990e-04	6.768316e-05
1.388724716637895e-07	2.400000e+01	5.917173e-04	9.861955e-05
1.710905895797368e-07	2.400000e+01	8.267704e-04	1.377951e-04
2.033087074956842e-07	2.400000e+01	1.111258e-03	1.852097e-04
2.355268254116315e-07	2.400000e+01	1.445181e-03	2.408635e-04
4.614949949043033e-07	2.400000e+01	5.157177e-03	8.595296e-04
9.134313338896470e-07	2.400000e+01	1.967657e-02	3.279428e-03
1.817304011860335e-06	2.400000e+01	6.968990e-02	1.161498e-02
2.793866511860335e-06	2.400000e+01	1.522059e-01	2.536765e-02
3.770429011860335e-06	2.400000e+01	2.609481e-01	4.349134e-02
4.033437499999999e-06	2.400000e+01	2.960755e-01	4.934592e-02
4.172946428571428e-06	2.400000e+01	3.159219e-01	5.265366e-02
4.312455357142857e-06	2.400000e+01	3.364447e-01	5.607412e-02
4.451964285714285e-06	2.400000e+01	3.576439e-01	5.960732e-02
4.591473214285714e-06	2.400000e+01	3.795195e-01	6.325325e-02
4.730982142857142e-06	2.400000e+01	4.020715e-01	6.701191e-02
4.870491071428571e-06	2.400000e+01	4.252998e-01	7.088331e-02
5.009999999999999e-06	2.400000e+01	4.492046e-01	7.486743e-02
5.019375000000000e-06	2.400000e+01	4.508282e-01	7.513803e-02
5.019437500000000e-06	2.400000e+01	4.508390e-01	7.513984e-02
5.019562500000000e-06	2.400000e+01	4.508607e-01	7.514345e-02
5.019750000000000e-06	2.400000e+01	4.508932e-01	7.514887e-02
5.019999999999999e-06	2.400000e+01	4.509365e-01	7.515609e-02
5.731428571428571e-06	2.400000e+01	5.717579e-01	9.529298e-02
6.442857142857143e-06	2.400000e+01	6.889328e-01	1.148221e-01
7.154285714285714e-06	2.400000e+01	8.024612e-01	1.337435e-01
7.865714285714286e-06	2.400000e+01	9.123432e-01	1.520572e-01
8.577142857142858e-06	2.400000e+01	1.018579e+00	1.697631e-01
9.288571428571429e-06	2.400000e+01	1.121168e+00	1.868613e-01
9.999999999999999e-06	2.400000e+01	1.220110e+00	2.033517e-01
1.000100000000000e-05	2.400000e+01	1.220246e+00	2.033743e-01
1.000300000000000e-05	2.400000e+01	1.220518e+00	2.034196e-01
1.001000000000000e-05	2.400000e+01	1.221470e+00	2.035782e-01
1.072428571428571e-05	2.400000e+01	1.329913e+00	2.216522e-01
1.143857142857143e-05	2.400000e+01	1.451607e+00	2.419345e-01
1.215285714285714e-05	2.400000e+01	1.586551e+00	2.644252e-01
1.286714285714286e-05	2.400000e+01	1.734745e+00	2.891242e-01
1.358142857142857e-05	2.400000e+01	1.896189e+00	3.160315e-01
1.429571428571429e-05	2.400000e+01	2.070883e+00	3.451472e-01
1.501000000000000e-05	2.400000e+01	2.258828e+00	3.764713e-01
1.501940937860517e-05	2.400000e+01	2.261398e+00	3.768996e-01
1.501945312833812e-05	2.400000e+01	2.261410e+00	3.769016e-01
1.501954062780402e-05	2.400000e+01	2.261434e+00	3.769056e-01
1.501971562673582e-05	2.400000e+01	2.261481e+00	3.769135e-01
1.502000000000000e-05	2.400000e+01	2.261559e+00	3.769265e-01
1.573142857142857e-05	2.400000e+01	2.451146e+00	4.085244e-01
1.644285714285714e-05	2.400000e+01	2.633911e+00	4.389853e-01
1.715428571428571e-05	2.400000e+01	2.809854e+00	4.683091e-01
1.786571428571429e-05	2.400000e+01	2.978975e+00	4.964958e-01
1.857714285714286e-05	2.400000e+01	3.141273e+00	5.235455e-01
1.928857142857143e-05	2.400000e+01	3.296749e+00	5.494582e-01
2.000000000000000e-05	2.400000e+01	3.445403e+00	5.742338e-01
2.000100000000000e-05	2.400000e+01	3.445606e+00	5.742677e-01
2.000300000000000e-05	2.400000e+01	3.446012e+00	5.743353e-01
2.001000000000000e-05	2.400000e+01	3.447434e+00	5.745723e-01
2.072428571428571e-05	2.400000e+01	3.601651e+00	6.002751e-01
2.143857142857143e-05	2.400000e+01	3.766265e+00	6.277109e-01
2.215285714285714e-05	2.400000e+01	3.941278e+00	6.568797e-01
2.286714285714286e-05	2.400000e+01	4.126689e+00	6.877815e-01
2.358142857142857e-05	2.400000e+01	4.322498e+00	7.204163e-01
2.429571428571429e-05	2.400000e+01	4.528704e+00	7.547840e-01
2.501000000000000e-05	2.400000e+01	4.745309e+00	7.908848e-01
2.501940939885742e-05	2.400000e+01	4.748234e+00	7.913722e-01
2.501945314709021e-05	2.400000e+01	4.748247e+00	7.913745e-01
2.501954064355577e-05	2.400000e+01	4.748274e+00	7.913790e-01
2.501971563648691e-05	2.400000e+01	4.748329e+00	7.913882e-01
2.502000000000000e-05	2.400000e+01	4.748417e+00	7.914029e-01
2.573142857142857e-05	2.400000e+01	4.962918e+00	8.271531e-01
2.644285714285714e-05	2.400000e+01	5.168150e+00	8.613584e-01
2.715428571428571e-05	2.400000e+01	5.364113e+00	8.940190e-01
2.786571428571428e-05	2.400000e+01	5.550808e+00	9.251347e-01
2.857714285714286e-05	2.400000e+01	5.728234e+00	9.547057e-01
2.928857142857143e-05	2.400000e+01	5.896391e+00	9.827318e-01
3.000000000000000e-05	2.400000e+01	6.055279e+00	1.009213e+00
3.000033536570263e-05	2.400000e+01	6.055351e+00	1.009225e+00
3.000100609710790e-05	2.400000e+01	6.055495e+00	1.009249e+00
3.000234755991843e-05	2.400000e+01	6.055784e+00	1.009297e+00
3.001000000000000e-05	2.400000e+01	6.057433e+00	1.009572e+00
3.072428571428571e-05	2.400000e+01	6.218809e+00	1.036468e+00
3.143857142857143e-05	2.400000e+01	6.388517e+00	1.064753e+00
3.215285714285714e-05	2.400000e+01	6.566557e+00	1.094426e+00
3.286714285714286e-05	2.400000e+01	6.752928e+00	1.125488e+00
3.358142857142857e-05	2.400000e+01	6.947631e+00	1.157939e+00
3.429571428571429e-05	2.400000e+01	7.150666e+00	1.191778e+00
3.501000000000000e-05	2.400000e+01	7.362032e+00	1.227005e+00
3.501862500000000e-05	2.400000e+01	7.364636e+00	1.227439e+00
3.501912500000000e-05	2.400000e+01	7.364787e+00	1.227465e+00
3.502000000000000e-05	2.400000e+01	7.365051e+00	1.227509e+00
3.573142857142857e-05	2.400000e+01	7.572045e+00	1.262008e+00
3.644285714285714e-05	2.400000e+01	7.768052e+00	1.294675e+00
3.715428571428572e-05	2.400000e+01	7.953071e+00	1.325512e+00
3.786571428571429e-05	2.400000e+01	8.127104e+00	1.354517e+00
3.857714285714286e-05	2.400000e+01	8.290150e+00	1.381692e+00
3.928857142857143e-05	2.400000e+01	8.442209e+00	1.407035e+00
4.000000000000000e-05	2.400000e+01	8.583281e+00	1.430547e+00
4.000049999999998e-05	2.400000e+01	8.583375e+00	1.430562e+00
4.000149999999996e-05	2.400000e+01	8.583564e+00	1.430594e+00
4.000349999999990e-05	2.400000e+01	8.583943e+00	1.430657e+00
4.001000000000000e-05	2.400000e+01	8.585175e+00	1.430862e+00
4.072428571428571e-05	2.400000e+01	8.726882e+00	1.454480e+00
4.143857142857142e-05	2.400000e+01	8.875667e+00	1.479278e+00
4.215285714285714e-05	2.400000e+01	9.031531e+00	1.505255e+00
4.286714285714286e-05	2.400000e+01	9.194472e+00	1.532412e+00
4.358142857142857e-05	2.400000e+01	9.364492e+00	1.560749e+00
4.429571428571428e-05	2.400000e+01	9.541591e+00	1.590265e+00
4.501000000000000e-05	2.400000e+01	9.725767e+00	1.620961e+00
4.501938610179703e-05	2.400000e+01	9.728234e+00	1.621372e+00
4.501940802673285e-05	2.400000e+01	9.728240e+00	1.621373e+00
4.501945187660449e-05	2.400000e+01	9.728251e+00	1.621375e+00
4.501953957634777e-05	2.400000e+01	9.728274e+00	1.621379e+00
4.501971497583433e-05	2.400000e+01	9.728320e+00	1.621387e+00
4.502000000000000e-05	2.400000e+01	9.728395e+00	1.621399e+00
4.573142857142857e-05	2.400000e+01	9.906562e+00	1.651094e+00
4.644285714285714e-05	2.400000e+01	1.007293e+01	1.678822e+00
4.715428571428572e-05	2.400000e+01	1.022750e+01	1.704584e+00
4.786571428571429e-05	2.400000e+01	1.037028e+01	1.728380e+00
4.857714285714286e-05	2.400000e+01	1.050126e+01	1.750209e+00
4.928857142857143e-05	2.400000e+01	1.062044e+01	1.770073e+00
5.000000000000000e-05	2.400000e+01	1.072782e+01	1.787970e+00
5.000100000000000e-05	2.400000e+01	1.072796e+01	1.787994e+00
5.000300000000000e-05	2.400000e+01	1.072824e+01	1.788041e+00
5.001000000000000e-05	2.400000e+01	1.072923e+01	1.788205e+00
5.072428571428571e-05	2.400000e+01	1.083586e+01	1.805977e+00
5.143857142857142e-05	2.400000e+01	1.094901e+01	1.824835e+00
5.215285714285714e-05	2.400000e+01	1.106868e+01	1.844780e+00
5.286714285714286e-05	2.400000e+01	1.119486e+01	1.865810e+00
5.358142857142857e-05	2.400000e+01	1.132756e+01	1.887927e+00
5.429571428571428e-05	2.400000e+01	1.146678e+01	1.911129e+00
5.501000000000000e-05	2.400000e+01	1.161251e+01	1.935418e+00
5.501938752484323e-05	2.400000e+01	1.161447e+01	1.935745e+00
5.501940939895598e-05	2.400000e+01	1.161448e+01	1.935746e+00
5.501945314718146e-05	2.400000e+01	1.161448e+01	1.935747e+00
5.501954064363243e-05	2.400000e+01	1.161450e+01	1.935750e+00
5.501971563653436e-05	2.400000e+01	1.161454e+01	1.935757e+00
5.502000000000000e-05	2.400000e+01	1.161460e+01	1.935766e+00
5.573142857142857e-05	2.400000e+01	1.175387e+01	1.958979e+00
5.644285714285714e-05	2.400000e+01	1.188109e+01	1.980181e+00
5.715428571428571e-05	2.400000e+01	1.199624e+01	1.999374e+00
5.786571428571428e-05	2.400000e+01	1.209934e+01	2.016557e+00
5.857714285714285e-05	2.400000e+01	1.219039e+01	2.031731e+00
5.928857142857142e-05	2.400000e+01	1.226937e+01	2.044895e+00
5.999999999999999e-05	2.400000e+01	1.233630e+01	2.056050e+00
6.000034133672858e-05	2.400000e+01	1.233633e+01	2.056054e+00
6.000102401018575e-05	2.400000e+01	1.233638e+01	2.056064e+00
6.000238935710009e-05	2.400000e+01	1.233650e+01	2.056083e+00
6.001000000000000e-05	2.400000e+01	1.233714e+01	2.056190e+00
6.072428571428571e-05	2.400000e+01	1.240294e+01	2.067156e+00
6.143857142857143e-05	2.400000e+01	1.247522e+01	2.079203e+00
6.215285714285715e-05	2.400000e+01	1.255398e+01	2.092331e+00
6.286714285714286e-05	2.400000e+01	1.263923e+01	2.106539e+00
6.358142857142858e-05	2.400000e+01	1.273097e+01	2.121828e+00
6.429571428571428e-05	2.400000e+01	1.282918e+01	2.138197e+00
6.501000000000000e-05	2.400000e+01	1.293388e+01	2.155647e+00
6.501862500000000e-05	2.400000e+01	1.293519e+01	2.155865e+00
6.501912500000000e-05	2.400000e+01	1.293527e+01	2.155878e+00
6.502000000000000e-05	2.400000e+01	1.293540e+01	2.155900e+00
6.573142857142857e-05	2.400000e+01	1.303418e+01	2.172363e+00
6.644285714285714e-05	2.400000e+01	1.312101e+01	2.186835e+00
6.715428571428571e-05	2.400000e+01	1.319589e+01	2.199315e+00
6.786571428571428e-05	2.400000e+01	1.325882e+01	2.209802e+00
6.857714285714285e-05	2.400000e+01	1.330979e+01	2.218298e+00
6.928857142857143e-05	2.400000e+01	1.334881e+01	2.224802e+00
6.999999999999999e-05	2.400000e+01	1.337588e+01	2.229313e+00
7.000049999999997e-05	2.400000e+01	1.337589e+01	2.229316e+00
7.000149999999995e-05	2.400000e+01	1.337592e+01	2.229321e+00
7.000349999999990e-05	2.400000e+01	1.337598e+01	2.229330e+00
7.000999999999999e-05	2.400000e+01	1.337617e+01	2.229362e+00
7.072428571428571e-05	2.400000e+01	1.340251e+01	2.233752e+00
7.143857142857142e-05	2.400000e+01	1.343570e+01	2.239284e+00
7.215285714285714e-05	2.400000e+01	1.347574e+01	2.245956e+00
7.286714285714284e-05	2.400000e+01	1.352262e+01	2.253770e+00
7.358142857142856e-05	2.400000e+01	1.357635e+01	2.262724e+00
7.429571428571428e-05	2.400000e+01	1.363692e+01	2.272820e+00
7.500999999999999e-05	2.400000e+01	1.370434e+01	2.284057e+00
7.501134400379079e-05	2.400000e+01	1.370447e+01	2.284079e+00
7.501268800758159e-05	2.400000e+01	1.370461e+01	2.284101e+00
7.501403201137239e-05	2.400000e+01	1.370474e+01	2.284123e+00
7.501537601516319e-05	2.400000e+01	1.370488e+01	2.284146e+00
7.501672001895399e-05	2.400000e+01	1.370501e+01	2.284168e+00
7.501806402274479e-05	2.400000e+01	1.370514e+01	2.284190e+00
7.501940802653559e-05	2.400000e+01	1.370528e+01	2.284213e+00
7.501945187642184e-05	2.400000e+01	1.370528e+01	2.284214e+00
7.501953957619435e-05	2.400000e+01	1.370529e+01	2.284215e+00
7.501971497573935e-05	2.400000e+01	1.370531e+01	2.284218e+00
7.501999999999998e-05	2.400000e+01	1.370534e+01	2.284223e+00
7.559191964285712e-05	2.400000e+01	1.375535e+01	2.292559e+00
7.616383928571427e-05	2.400000e+01	1.379826e+01	2.299710e+00
7.673575892857141e-05	2.400000e+01	1.383406e+01	2.305677e+00
7.730767857142856e-05	2.400000e+01	1.386276e+01	2.310460e+00
7.787959821428570e-05	2.400000e+01	1.388435e+01	2.314058e+00
7.845151785714285e-05	2.400000e+01	1.389883e+01	2.316472e+00
7.902343749999999e-05	2.400000e+01	1.390621e+01	2.317702e+00
7.941824951584438e-05	2.400000e+01	1.390606e+01	2.317677e+00
7.950135672786660e-05	2.400000e+01	1.390551e+01	2.317585e+00
7.958446393988884e-05	2.400000e+01	1.390481e+01	2.317468e+00
7.966757115191107e-05	2.400000e+01	1.390396e+01	2.317326e+00
7.975067836393330e-05	2.400000e+01	1.390296e+01	2.317159e+00
7.983378557595553e-05	2.400000e+01	1.390181e+01	2.316968e+00
7.991689278797777e-05	2.400000e+01	1.390051e+01	2.316752e+00
7.999999999999999e-05	2.400000e+01	1.389907e+01	2.316511e+00
8.000100000000000e-05	2.400000e+01	1.389905e+01	2.316508e+00
8.000300000000000e-05	2.400000e+01	1.389901e+01	2.316502e+00
8.000999999999999e-05	2.400000e+01	1.389888e+01	2.316481e+00
8.038350892857114e-05	2.400000e+01	1.389405e+01	2.315675e+00
8.075701785714229e-05	2.400000e+01	1.389139e+01	2.315232e+00
8.113052678571344e-05	2.400000e+01	1.389090e+01	2.315150e+00
8.150403571428458e-05	2.400000e+01	1.389258e+01	2.315430e+00
8.187754464285573e-05	2.400000e+01	1.389643e+01	2.316072e+00
8.225105357142689e-05	2.400000e+01	1.390246e+01	2.317076e+00
8.262456249999804e-05	2.400000e+01	1.391065e+01	2.318442e+00
8.360112499999804e-05	2.400000e+01	1.393885e+01	2.323142e+00
8.380239285714117e-05	2.400000e+01	1.394632e+01	2.324386e+00
8.400366071428431e-05	2.400000e+01	1.395446e+01	2.325743e+00
8.420492857142744e-05	2.400000e+01	1.396328e+01	2.327213e+00
8.440619642857058e-05	2.400000e+01	1.397277e+01	2.328796e+00
8.460746428571371e-05	2.400000e+01	1.398294e+01	2.330491e+00
8.480873214285686e-05	2.400000e+01	1.399379e+01	2.332299e+00
8.500999999999999e-05	2.400000e+01	1.400532e+01	2.334219e+00
8.501134418833444e-05	2.400000e+01	1.400539e+01	2.334232e+00
8.501268837666889e-05	2.400000e+01	1.400547e+01	2.334245e+00
8.501403256500334e-05	2.400000e+01	1.400555e+01	2.334258e+00
8.501537675333781e-05	2.400000e+01	1.400563e+01	2.334272e+00
8.501672094167226e-05	2.400000e+01	1.400571e+01	2.334285e+00
8.501806513000671e-05	2.400000e+01	1.400578e+01	2.334298e+00
8.501940931834116e-05	2.400000e+01	1.400586e+01	2.334311e+00
8.501945307253811e-05	2.400000e+01	1.400587e+01	2.334311e+00
8.501954058093201e-05	2.400000e+01	1.400587e+01	2.334312e+00
8.501971559771981e-05	2.400000e+01	1.400588e+01	2.334313e+00
8.501999999999998e-05	2.400000e+01	1.400590e+01	2.334316e+00
8.542577040615500e-05	2.400000e+01	1.402612e+01	2.337687e+00
8.583154081231000e-05	2.400000e+01	1.404265e+01	2.340441e+00
8.623731121846502e-05	2.400000e+01	1.405548e+01	2.342579e+00
8.664308162462002e-05	2.400000e+01	1.406461e+01	2.344101e+00
8.704885203077503e-05	2.400000e+01	1.407004e+01	2.345007e+00
8.745462243693003e-05	2.400000e+01	1.407178e+01	2.345297e+00
8.786039284308505e-05	2.400000e+01	1.406982e+01	2.344971e+00
8.883695534308505e-05	2.400000e+01	1.405557e+01	2.342596e+00
8.900310457978719e-05	2.400000e+01	1.405069e+01	2.341782e+00
8.916925381648932e-05	2.400000e+01	1.404517e+01	2.340862e+00
8.933540305319146e-05	2.400000e+01	1.403901e+01	2.339835e+00
8.950155228989358e-05	2.400000e+01	1.403221e+01	2.338702e+00
8.966770152659572e-05	2.400000e+01	1.402477e+01	2.337461e+00
8.983385076329786e-05	2.400000e+01	1.401668e+01	2.336114e+00
8.999999999999999e-05	2.400000e+01	1.400796e+01	2.334660e+00
9.000099999999999e-05	2.400000e+01	1.400791e+01	2.334651e+00
9.000300000000000e-05	2.400000e+01	1.400780e+01	2.334633e+00
9.000999999999999e-05	2.400000e+01	1.400742e+01	2.334571e+00
9.038350892857114e-05	2.400000e+01	1.398950e+01	2.331584e+00
9.075701785714229e-05	2.400000e+01	1.397392e+01	2.328987e+00
9.113052678571344e-05	2.400000e+01	1.396068e+01	2.326780e+00
9.150403571428458e-05	2.400000e+01	1.394978e+01	2.324964e+00
9.187754464285573e-05	2.400000e+01	1.394123e+01	2.323538e+00
9.225105357142688e-05	2.400000e+01	1.393501e+01	2.322502e+00
9.262456249999804e-05	2.400000e+01	1.393114e+01	2.321857e+00
9.360112499999804e-05	2.400000e+01	1.392836e+01	2.321394e+00
9.414537499999609e-05	2.400000e+01	1.393307e+01	2.322179e+00
9.426889285713950e-05	2.400000e+01	1.393513e+01	2.322522e+00
9.439241071428292e-05	2.400000e+01	1.393742e+01	2.322904e+00
9.451592857142633e-05	2.400000e+01	1.393995e+01	2.323325e+00
9.463944642856974e-05	2.400000e+01	1.394270e+01	2.323784e+00
9.476296428571315e-05	2.400000e+01	1.394569e+01	2.324282e+00
9.488648214285658e-05	2.400000e+01	1.394891e+01	2.324818e+00
9.500999999999999e-05	2.400000e+01	1.395236e+01	2.325393e+00
9.501134418833444e-05	2.400000e+01	1.395240e+01	2.325400e+00
9.501268837666889e-05	2.400000e+01	1.395244e+01	2.325406e+00
9.501403256500334e-05	2.400000e+01	1.395248e+01	2.325413e+00
9.501537675333781e-05	2.400000e+01	1.395252e+01	2.325419e+00
9.501672094167226e-05	2.400000e+01	1.395255e+01	2.325426e+00
9.501806513000671e-05	2.400000e+01	1.395259e+01	2.325432e+00
9.501940931834116e-05	2.400000e+01	1.395263e+01	2.325439e+00
9.501945307253811e-05	2.400000e+01	1.395263e+01	2.325439e+00
9.501954058093201e-05	2.400000e+01	1.395264e+01	2.325439e+00
9.501971559771981e-05	2.400000e+01	1.395264e+01	2.325440e+00
9.501999999999998e-05	2.400000e+01	1.395265e+01	2.325442e+00
9.542577040615500e-05	2.400000e+01	1.396121e+01	2.326869e+00
9.583154081231000e-05	2.400000e+01	1.396628e+01	2.327713e+00
9.623731121846501e-05	2.400000e+01	1.396784e+01	2.327973e+00
9.664308162462002e-05	2.400000e+01	1.396590e+01	2.327650e+00
9.704885203077503e-05	2.400000e+01	1.396046e+01	2.326744e+00
9.745462243693003e-05	2.400000e+01	1.395152e+01	2.325254e+00
9.786039284308505e-05	2.400000e+01	1.393909e+01	2.323181e+00
9.902343749999999e-05	2.400000e+01	1.389032e+01	2.315054e+00
9.999999999999999e-05	2.400000e+01	1.382491e+01	2.304152e+00
1.000010000000000e-04	2.400000e+01	1.382483e+01	2.304139e+00
1.000030000000000e-04	2.400000e+01	1.382468e+01	2.304114e+00
1.000100000000000e-04	2.400000e+01	1.382414e+01	2.304024e+00
1.006007678571423e-04	2.400000e+01	1.378431e+01	2.297385e+00
1.011915357142846e-04	2.400000e+01	1.375017e+01	2.291695e+00
1.017823035714269e-04	2.400000e+01	1.372173e+01	2.286955e+00
1.023730714285692e-04	2.400000e+01	1.369898e+01	2.283164e+00
1.029638392857115e-04	2.400000e+01	1.368194e+01	2.280322e+00
1.035546071428538e-04	2.400000e+01	1.367058e+01	2.278430e+00
1.041453749999961e-04	2.400000e+01	1.366493e+01	2.277488e+00
1.043692499999883e-04	2.400000e+01	1.366490e+01	2.277484e+00
1.046239999999454e-04	2.400000e+01	1.366565e+01	2.277609e+00
1.050100000000000e-04	2.400000e+01	1.366899e+01	2.278165e+00
1.050113441883344e-04	2.400000e+01	1.366900e+01	2.278167e+00
1.050126883766689e-04	2.400000e+01	1.366902e+01	2.278170e+00
1.050140325650033e-04	2.400000e+01	1.366904e+01	2.278173e+00
1.050153767533378e-04	2.400000e+01	1.366905e+01	2.278175e+00
1.050167209416723e-04	2.400000e+01	1.366907e+01	2.278178e+00
1.050180651300067e-04	2.400000e+01	1.366908e+01	2.278181e+00
1.050194093183412e-04	2.400000e+01	1.366910e+01	2.278183e+00
1.050194530725381e-04	2.400000e+01	1.366910e+01	2.278183e+00
1.050195405809320e-04	2.400000e+01	1.366910e+01	2.278184e+00
1.050197155977198e-04	2.400000e+01	1.366910e+01	2.278184e+00
1.050200000000000e-04	2.400000e+01	1.366911e+01	2.278185e+00
1.051531287073469e-04	2.400000e+01	1.367045e+01	2.278408e+00
1.052862574146938e-04	2.400000e+01	1.367131e+01	2.278551e+00
1.054193861220408e-04	2.400000e+01	1.367169e+01	2.278614e+00
1.055525148293877e-04	2.400000e+01	1.367158e+01	2.278597e+00
1.056856435367346e-04	2.400000e+01	1.367100e+01	2.278500e+00
1.058187722440816e-04	2.400000e+01	1.366993e+01	2.278322e+00
1.059519009514285e-04	2.400000e+01	1.366838e+01	2.278064e+00
1.068838303430850e-04	2.400000e+01	1.364894e+01	2.274822e+00
